! Cascaded S-parameters: /home/will/projects/rf_impedance_matching_tool/tests/fixtures/sample_device.s2p + matching network
! Topology: L-section
! Target: 2.250 GHz
! Generated by SNP Tool
!
# GHz S MA R 50
2.000000  0.754439 -47.24  0.162895 67.14  0.162895 67.14  0.119800 113.70
2.010000  0.749482 -48.38  0.167534 66.68  0.167534 66.68  0.118539 114.94
2.020000  0.744510 -49.53  0.172248 66.21  0.172248 66.21  0.117345 116.28
2.030000  0.739522 -50.69  0.177036 65.72  0.177036 65.72  0.116234 117.70
2.040000  0.734514 -51.86  0.181899 65.22  0.181899 65.22  0.115222 119.21
2.050000  0.729487 -53.03  0.186838 64.71  0.186838 64.71  0.114327 120.82
2.060000  0.724434 -54.22  0.191856 64.18  0.191856 64.18  0.113551 122.50
2.070000  0.719357 -55.41  0.196950 63.63  0.196950 63.63  0.112932 124.29
2.080000  0.714252 -56.61  0.202118 63.07  0.202118 63.07  0.112493 126.16
2.090000  0.709118 -57.82  0.207359 62.49  0.207359 62.49  0.112256 128.11
2.100000  0.703953 -59.04  0.212674 61.89  0.212674 61.89  0.112244 130.14
2.110000  0.698750 -60.27  0.218064 61.28  0.218064 61.28  0.112459 132.23
2.120000  0.693509 -61.52  0.223525 60.65  0.223525 60.65  0.112945 134.37
2.130000  0.688228 -62.77  0.229054 60.00  0.229054 60.00  0.113724 136.55
2.140000  0.682904 -64.04  0.234649 59.34  0.234649 59.34  0.114817 138.76
2.150000  0.677534 -65.31  0.240308 58.66  0.240308 58.66  0.116241 140.98
2.160000  0.672110 -66.60  0.246032 57.96  0.246032 57.96  0.117990 143.18
2.170000  0.666633 -67.91  0.251813 57.25  0.251813 57.25  0.120099 145.35
2.180000  0.661101 -69.22  0.257649 56.51  0.257649 56.51  0.122579 147.48
2.190000  0.655509 -70.55  0.263535 55.76  0.263535 55.76  0.125436 149.55
2.200000  0.649855 -71.90  0.269466 55.00  0.269466 55.00  0.128674 151.53
2.210000  0.644130 -73.26  0.275441 54.21  0.275441 54.21  0.132270 153.43
2.220000  0.638335 -74.63  0.281452 53.41  0.281452 53.41  0.136244 155.22
2.230000  0.632468 -76.02  0.287493 52.59  0.287493 52.59  0.140592 156.91
2.240000  0.626525 -77.42  0.293558 51.75  0.293558 51.75  0.145306 158.47
2.250000  0.620504 -78.84  0.299640 50.89  0.299640 50.89  0.150377 159.92
2.260000  0.614394 -80.27  0.305735 50.02  0.305735 50.02  0.155769 161.24
2.270000  0.608200 -81.73  0.311833 49.14  0.311833 49.14  0.161493 162.43
2.280000  0.601918 -83.20  0.317925 48.23  0.317925 48.23  0.167536 163.51
2.290000  0.595548 -84.68  0.324005 47.31  0.324005 47.31  0.173883 164.46
2.300000  0.589087 -86.18  0.330064 46.38  0.330064 46.38  0.180518 165.29
2.310000  0.582524 -87.71  0.336095 45.43  0.336095 45.43  0.187403 166.01
2.320000  0.575868 -89.25  0.342087 44.47  0.342087 44.47  0.194543 166.61
2.330000  0.569117 -90.80  0.348031 43.49  0.348031 43.49  0.201921 167.11
2.340000  0.562271 -92.38  0.353918 42.51  0.353918 42.51  0.209521 167.52
2.350000  0.555330 -93.97  0.359738 41.51  0.359738 41.51  0.217324 167.82
2.360000  0.548286 -95.59  0.365484 40.50  0.365484 40.50  0.225292 168.04
2.370000  0.541149 -97.22  0.371145 39.48  0.371145 39.48  0.233428 168.17
2.380000  0.533921 -98.88  0.376711 38.44  0.376711 38.44  0.241714 168.23
2.390000  0.526606 -100.55  0.382175 37.41  0.382175 37.41  0.250133 168.21
2.400000  0.519205 -102.24  0.387527 36.36  0.387527 36.36  0.258667 168.12
2.410000  0.511713 -103.96  0.392759 35.31  0.392759 35.31  0.267277 167.97
2.420000  0.504144 -105.69  0.397862 34.25  0.397862 34.25  0.275966 167.75
2.430000  0.496504 -107.45  0.402831 33.19  0.402831 33.19  0.284719 167.48
2.440000  0.488798 -109.23  0.407657 32.12  0.407657 32.12  0.293517 167.17
2.450000  0.481034 -111.03  0.412335 31.06  0.412335 31.06  0.302343 166.80
2.460000  0.473207 -112.86  0.416856 29.99  0.416856 29.99  0.311162 166.39
2.470000  0.465335 -114.70  0.421218 28.92  0.421218 28.92  0.319978 165.94
2.480000  0.457429 -116.58  0.425416 27.85  0.425416 27.85  0.328776 165.46
2.490000  0.449496 -118.47  0.429447 26.79  0.429447 26.79  0.337542 164.94
2.500000  0.441547 -120.40  0.433309 25.72  0.433309 25.72  0.346262 164.40