! Sample device S2P file for testing
! 2-port device with 51 frequency points
! Frequency range: 2.0 - 2.5 GHz
! Simulates a device with poor matching (needs optimization)
# GHz S MA R 50
2.000  0.7500 -45.00  0.2500 45.00  0.2500 45.00  0.7500 -45.00
2.010  0.7450 -46.00  0.2550 44.50  0.2550 44.50  0.7450 -46.00
2.020  0.7400 -47.00  0.2600 44.00  0.2600 44.00  0.7400 -47.00
2.030  0.7350 -48.00  0.2650 43.50  0.2650 43.50  0.7350 -48.00
2.040  0.7300 -49.00  0.2700 43.00  0.2700 43.00  0.7300 -49.00
2.050  0.7250 -50.00  0.2750 42.50  0.2750 42.50  0.7250 -50.00
2.060  0.7200 -51.00  0.2800 42.00  0.2800 42.00  0.7200 -51.00
2.070  0.7150 -52.00  0.2850 41.50  0.2850 41.50  0.7150 -52.00
2.080  0.7100 -53.00  0.2900 41.00  0.2900 41.00  0.7100 -53.00
2.090  0.7050 -54.00  0.2950 40.50  0.2950 40.50  0.7050 -54.00
2.100  0.7000 -55.00  0.3000 40.00  0.3000 40.00  0.7000 -55.00
2.110  0.6950 -56.00  0.3050 39.50  0.3050 39.50  0.6950 -56.00
2.120  0.6900 -57.00  0.3100 39.00  0.3100 39.00  0.6900 -57.00
2.130  0.6850 -58.00  0.3150 38.50  0.3150 38.50  0.6850 -58.00
2.140  0.6800 -59.00  0.3200 38.00  0.3200 38.00  0.6800 -59.00
2.150  0.6750 -60.00  0.3250 37.50  0.3250 37.50  0.6750 -60.00
2.160  0.6700 -61.00  0.3300 37.00  0.3300 37.00  0.6700 -61.00
2.170  0.6650 -62.00  0.3350 36.50  0.3350 36.50  0.6650 -62.00
2.180  0.6600 -63.00  0.3400 36.00  0.3400 36.00  0.6600 -63.00
2.190  0.6550 -64.00  0.3450 35.50  0.3450 35.50  0.6550 -64.00
2.200  0.6500 -65.00  0.3500 35.00  0.3500 35.00  0.6500 -65.00
2.210  0.6450 -66.00  0.3550 34.50  0.3550 34.50  0.6450 -66.00
2.220  0.6400 -67.00  0.3600 34.00  0.3600 34.00  0.6400 -67.00
2.230  0.6350 -68.00  0.3650 33.50  0.3650 33.50  0.6350 -68.00
2.240  0.6300 -69.00  0.3700 33.00  0.3700 33.00  0.6300 -69.00
2.250  0.6250 -70.00  0.3750 32.50  0.3750 32.50  0.6250 -70.00
2.260  0.6200 -71.00  0.3800 32.00  0.3800 32.00  0.6200 -71.00
2.270  0.6150 -72.00  0.3850 31.50  0.3850 31.50  0.6150 -72.00
2.280  0.6100 -73.00  0.3900 31.00  0.3900 31.00  0.6100 -73.00
2.290  0.6050 -74.00  0.3950 30.50  0.3950 30.50  0.6050 -74.00
2.300  0.6000 -75.00  0.4000 30.00  0.4000 30.00  0.6000 -75.00
2.310  0.5950 -76.00  0.4050 29.50  0.4050 29.50  0.5950 -76.00
2.320  0.5900 -77.00  0.4100 29.00  0.4100 29.00  0.5900 -77.00
2.330  0.5850 -78.00  0.4150 28.50  0.4150 28.50  0.5850 -78.00
2.340  0.5800 -79.00  0.4200 28.00  0.4200 28.00  0.5800 -79.00
2.350  0.5750 -80.00  0.4250 27.50  0.4250 27.50  0.5750 -80.00
2.360  0.5700 -81.00  0.4300 27.00  0.4300 27.00  0.5700 -81.00
2.370  0.5650 -82.00  0.4350 26.50  0.4350 26.50  0.5650 -82.00
2.380  0.5600 -83.00  0.4400 26.00  0.4400 26.00  0.5600 -83.00
2.390  0.5550 -84.00  0.4450 25.50  0.4450 25.50  0.5550 -84.00
2.400  0.5500 -85.00  0.4500 25.00  0.4500 25.00  0.5500 -85.00
2.410  0.5450 -86.00  0.4550 24.50  0.4550 24.50  0.5450 -86.00
2.420  0.5400 -87.00  0.4600 24.00  0.4600 24.00  0.5400 -87.00
2.430  0.5350 -88.00  0.4650 23.50  0.4650 23.50  0.5350 -88.00
2.440  0.5300 -89.00  0.4700 23.00  0.4700 23.00  0.5300 -89.00
2.450  0.5250 -90.00  0.4750 22.50  0.4750 22.50  0.5250 -90.00
2.460  0.5200 -91.00  0.4800 22.00  0.4800 22.00  0.5200 -91.00
2.470  0.5150 -92.00  0.4850 21.50  0.4850 21.50  0.5150 -92.00
2.480  0.5100 -93.00  0.4900 21.00  0.4900 21.00  0.5100 -93.00
2.490  0.5050 -94.00  0.4950 20.50  0.4950 20.50  0.5050 -94.00
2.500  0.5000 -95.00  0.5000 20.00  0.5000 20.00  0.5000 -95.00
